#Digilent WaveForms Logic Analyzer Acquisition
#Device Name: Discovery2
#Serial Number: SN:210321B9C964
#Date Time: 2024-11-15 15:30:01.158
#Sample rate: 400Hz
#Samples: 4096

Time (s),UART2,UART
-2.6175,X,X
-2.615,X,X
-2.6125,X,X
-2.61,X,X
-2.6075,X,X
-2.605,X,X
-2.6025,X,X
-2.6,X,X
-2.5975,X,X
-2.595,X,X
-2.5925,X,X
-2.59,X,X
-2.5875,X,X
-2.585,X,X
-2.5825,X,X
-2.58,X,X
-2.5775,X,X
-2.575,X,X
-2.5725,X,X
-2.57,X,X
-2.5675,X,X
-2.565,X,X
-2.5625,X,X
-2.56,X,X
-2.5575,X,X
-2.555,X,X
-2.5525,X,X
-2.55,X,X
-2.5475,X,X
-2.545,X,X
-2.5425,X,X
-2.54,X,X
-2.5375,X,X
-2.535,X,X
-2.5325,X,X
-2.53,X,X
-2.5275,X,X
-2.525,X,X
-2.5225,X,X
-2.52,X,X
-2.5175,X,X
-2.515,X,X
-2.5125,X,X
-2.51,X,X
-2.5075,hD4[Ô],X
-2.505,hD4[Ô],X
-2.5025,hD4[Ô],X
-2.5,hD4[Ô],X
-2.4975,hD4[Ô],X
-2.495,hD4[Ô],X
-2.4925,hD4[Ô],X
-2.49,hD4[Ô],X
-2.4875,hD4[Ô],X
-2.485,hD4[Ô],X
-2.4825,hD4[Ô],X
-2.48,hD4[Ô],X
-2.4775,hD4[Ô],X
-2.475,hD4[Ô],X
-2.4725,hD4[Ô],X
-2.47,hD4[Ô],X
-2.4675,hD4[Ô],X
-2.465,hD4[Ô],X
-2.4625,hD4[Ô],X
-2.46,hD4[Ô],X
-2.4575,hD4[Ô],X
-2.455,hD4[Ô],X
-2.4525,hD4[Ô],X
-2.45,hD4[Ô],X
-2.4475,hD4[Ô],X
-2.445,hD4[Ô],X
-2.4425,hD4[Ô],X
-2.44,hD4[Ô],X
-2.4375,hD4[Ô],X
-2.435,hD4[Ô],X
-2.4325,hD4[Ô],X
-2.43,hD4[Ô],X
-2.4275,hD4[Ô],X
-2.425,hD4[Ô],X
-2.4225,hD4[Ô],X
-2.42,hD4[Ô],X
-2.4175,hD4[Ô],X
-2.415,hD4[Ô],X
-2.4125,hD4[Ô],X
-2.41,hD4[Ô],X
-2.4075,hD4[Ô],X
-2.405,hD4[Ô],X
-2.4025,hD4[Ô],X
-2.4,hD4[Ô],X
-2.3975,hD4[Ô],X
-2.395,hD4[Ô],X
-2.3925,hD4[Ô],X
-2.39,hD4[Ô],X
-2.3875,hD4[Ô],X
-2.385,hD4[Ô],X
-2.3825,hD4[Ô],X
-2.38,hD4[Ô],X
-2.3775,hD4[Ô],X
-2.375,hD4[Ô],X
-2.3725,hD4[Ô],X
-2.37,hD4[Ô],X
-2.3675,hD4[Ô],X
-2.365,hD4[Ô],X
-2.3625,hD4[Ô],X
-2.36,hD4[Ô],X
-2.3575,hD4[Ô],X
-2.355,hD4[Ô],X
-2.3525,hD4[Ô],h85
-2.35,hD4[Ô],h85
-2.3475,hD4[Ô],h85
-2.345,hD4[Ô],h85
-2.3425,hD4[Ô],h85
-2.34,hD4[Ô],h85
-2.3375,hD4[Ô],h85
-2.335,hD4[Ô],h85
-2.3325,hD4[Ô],h85
-2.33,hD4[Ô],h85
-2.3275,hD4[Ô],h85
-2.325,hD4[Ô],h85
-2.3225,hD4[Ô],h85
-2.32,hD4[Ô],h85
-2.3175,hD4[Ô],h85
-2.315,hD4[Ô],h85
-2.3125,hD4[Ô],h85
-2.31,hD4[Ô],h85
-2.3075,hD4[Ô],h85
-2.305,hD4[Ô],h85
-2.3025,hD4[Ô],h85
-2.3,hD4[Ô],h85
-2.2975,hD4[Ô],h85
-2.295,hD4[Ô],h85
-2.2925,hD4[Ô],h85
-2.29,hD4[Ô],h85
-2.2875,hD4[Ô],h85
-2.285,hD4[Ô],h85
-2.2825,hD4[Ô],h85
-2.28,hD4[Ô],h85
-2.2775,hD4[Ô],h85
-2.275,hD4[Ô],h85
-2.2725,hD4[Ô],h85
-2.27,hD4[Ô],h85
-2.2675,hD4[Ô],h85
-2.265,hD4[Ô],h85
-2.2625,hD4[Ô],h85
-2.26,hD4[Ô],h85
-2.2575,hD4[Ô],h85
-2.255,hD4[Ô],h85
-2.2525,hD4[Ô],h85
-2.25,hD4[Ô],h85
-2.2475,hD4[Ô],h85
-2.245,hD4[Ô],h85
-2.2425,hD4[Ô],h85
-2.24,hD4[Ô],h85
-2.2375,hD4[Ô],h85
-2.235,hD4[Ô],h85
-2.2325,hD4[Ô],h85
-2.23,hD4[Ô],h85
-2.2275,hD4[Ô],h85
-2.225,hD4[Ô],h85
-2.2225,hD4[Ô],h85
-2.22,hD4[Ô],h85
-2.2175,hD4[Ô],h85
-2.215,hD4[Ô],h85
-2.2125,hD4[Ô],h85
-2.21,hD4[Ô],h85
-2.2075,hD4[Ô],h85
-2.205,hD4[Ô],h85
-2.2025,hD4[Ô],h85
-2.2,hD4[Ô],h85
-2.1975,hD4[Ô],h85
-2.195,hD4[Ô],h85
-2.1925,hD4[Ô],h85
-2.19,hD4[Ô],h85
-2.1875,hD4[Ô],h85
-2.185,hD4[Ô],h85
-2.1825,hD4[Ô],h85
-2.18,hD4[Ô],h85
-2.1775,hD4[Ô],h85
-2.175,hD4[Ô],h85
-2.1725,hD4[Ô],h85
-2.17,hD4[Ô],h85
-2.1675,hD4[Ô],h85
-2.165,hD4[Ô],h85
-2.1625,hD4[Ô],h85
-2.16,hD4[Ô],h85
-2.1575,hD4[Ô],h85
-2.155,hD4[Ô],h85
-2.1525,hD4[Ô],h85
-2.15,hD4[Ô],h85
-2.1475,hD4[Ô],h85
-2.145,hD4[Ô],h85
-2.1425,hD4[Ô],h85
-2.14,hD4[Ô],h85
-2.1375,hD4[Ô],h85
-2.135,hD4[Ô],h85
-2.1325,hD4[Ô],h85
-2.13,hD4[Ô],h85
-2.1275,hD4[Ô],h85
-2.125,hD4[Ô],h85
-2.1225,hD4[Ô],h85
-2.12,hD4[Ô],h85
-2.1175,hD4[Ô],h85
-2.115,hD4[Ô],h85
-2.1125,hD4[Ô],h85
-2.11,hD4[Ô],h85
-2.1075,hD4[Ô],h85
-2.105,hD4[Ô],h85
-2.1025,hD4[Ô],h85
-2.1,hD4[Ô],h85
-2.0975,hD4[Ô],h85
-2.095,hD4[Ô],h85
-2.0925,hD4[Ô],h85
-2.09,hD4[Ô],h85
-2.0875,hD4[Ô],h85
-2.085,hD4[Ô],h85
-2.0825,hD4[Ô],h85
-2.08,hD4[Ô],h85
-2.0775,hD4[Ô],h85
-2.075,hD4[Ô],h85
-2.0725,hD4[Ô],h85
-2.07,hD4[Ô],h85
-2.0675,hD4[Ô],h85
-2.065,hD4[Ô],h85
-2.0625,hD4[Ô],h85
-2.06,hD4[Ô],h85
-2.0575,hD4[Ô],h85
-2.055,hD4[Ô],h85
-2.0525,hD4[Ô],h85
-2.05,hD4[Ô],h85
-2.0475,hD4[Ô],h85
-2.045,hD4[Ô],h85
-2.0425,hD4[Ô],h85
-2.04,hD4[Ô],h85
-2.0375,hD4[Ô],h85
-2.035,hD4[Ô],h85
-2.0325,hD4[Ô],h85
-2.03,X,h85
-2.0275,X,h85
-2.025,X,h85
-2.0225,X,h85
-2.02,X,h85
-2.0175,X,h85
-2.015,X,h85
-2.0125,X,h85
-2.01,X,h85
-2.0075,X,h85
-2.005,X,h85
-2.0025,X,h85
-2,X,h85
-1.9975,X,h85
-1.995,X,h85
-1.9925,X,h85
-1.99,X,h85
-1.9875,X,h85
-1.985,X,h85
-1.9825,X,h85
-1.98,X,h85
-1.9775,X,h85
-1.975,X,h85
-1.9725,X,h85
-1.97,X,h85
-1.9675,X,h85
-1.965,X,h85
-1.9625,X,h85
-1.96,X,h85
-1.9575,h8A Framing Error,h85
-1.955,h8A Framing Error,h85
-1.9525,h8A Framing Error,h85
-1.95,h8A Framing Error,h85
-1.9475,h8A Framing Error,h85
-1.945,h8A Framing Error,h85
-1.9425,h8A Framing Error,h85
-1.94,h8A Framing Error,h85
-1.9375,h8A Framing Error,h85
-1.935,h8A Framing Error,h85
-1.9325,h8A Framing Error,h85
-1.93,h8A Framing Error,h85
-1.9275,h8A Framing Error,h85
-1.925,h8A Framing Error,h85
-1.9225,h8A Framing Error,h85
-1.92,h8A Framing Error,h85
-1.9175,h8A Framing Error,h85
-1.915,h8A Framing Error,h85
-1.9125,h8A Framing Error,h85
-1.91,h8A Framing Error,h85
-1.9075,h8A Framing Error,h85
-1.905,h8A Framing Error,h85
-1.9025,h8A Framing Error,h85
-1.9,h8A Framing Error,h85
-1.8975,h8A Framing Error,h85
-1.895,h8A Framing Error,h85
-1.8925,h8A Framing Error,h85
-1.89,h8A Framing Error,h85
-1.8875,h8A Framing Error,h85
-1.885,h8A Framing Error,h85
-1.8825,h8A Framing Error,h85
-1.88,h8A Framing Error,h85
-1.8775,h8A Framing Error,h85
-1.875,h8A Framing Error,X
-1.8725,h8A Framing Error,X
-1.87,h8A Framing Error,X
-1.8675,h8A Framing Error,X
-1.865,h8A Framing Error,X
-1.8625,h8A Framing Error,h5D[]]
-1.86,h8A Framing Error,h5D[]]
-1.8575,h8A Framing Error,h5D[]]
-1.855,h8A Framing Error,h5D[]]
-1.8525,h8A Framing Error,h5D[]]
-1.85,h8A Framing Error,h5D[]]
-1.8475,h8A Framing Error,h5D[]]
-1.845,h8A Framing Error,h5D[]]
-1.8425,h8A Framing Error,h5D[]]
-1.84,h8A Framing Error,h5D[]]
-1.8375,h8A Framing Error,h5D[]]
-1.835,h8A Framing Error,h5D[]]
-1.8325,h8A Framing Error,h5D[]]
-1.83,h8A Framing Error,h5D[]]
-1.8275,h8A Framing Error,h5D[]]
-1.825,h8A Framing Error,h5D[]]
-1.8225,h8A Framing Error,h5D[]]
-1.82,h8A Framing Error,h5D[]]
-1.8175,h8A Framing Error,h5D[]]
-1.815,h8A Framing Error,h5D[]]
-1.8125,h8A Framing Error,h5D[]]
-1.81,h8A Framing Error,h5D[]]
-1.8075,h8A Framing Error,h5D[]]
-1.805,h8A Framing Error,h5D[]]
-1.8025,h8A Framing Error,h5D[]]
-1.8,h8A Framing Error,h5D[]]
-1.7975,h8A Framing Error,h5D[]]
-1.795,h8A Framing Error,h5D[]]
-1.7925,h8A Framing Error,h5D[]]
-1.79,h8A Framing Error,h5D[]]
-1.7875,h8A Framing Error,h5D[]]
-1.785,h8A Framing Error,h5D[]]
-1.7825,h8A Framing Error,h5D[]]
-1.78,h8A Framing Error,h5D[]]
-1.7775,h8A Framing Error,h5D[]]
-1.775,h8A Framing Error,h5D[]]
-1.7725,h8A Framing Error,h5D[]]
-1.77,h8A Framing Error,h5D[]]
-1.7675,h8A Framing Error,h5D[]]
-1.765,h8A Framing Error,h5D[]]
-1.7625,h8A Framing Error,h5D[]]
-1.76,h8A Framing Error,h5D[]]
-1.7575,h8A Framing Error,h5D[]]
-1.755,h8A Framing Error,h5D[]]
-1.7525,h8A Framing Error,h5D[]]
-1.75,h8A Framing Error,h5D[]]
-1.7475,h8A Framing Error,h5D[]]
-1.745,h8A Framing Error,h5D[]]
-1.7425,h8A Framing Error,h5D[]]
-1.74,h8A Framing Error,h5D[]]
-1.7375,h8A Framing Error,h5D[]]
-1.735,h8A Framing Error,h5D[]]
-1.7325,h8A Framing Error,h5D[]]
-1.73,h8A Framing Error,h5D[]]
-1.7275,h8A Framing Error,h5D[]]
-1.725,h8A Framing Error,h5D[]]
-1.7225,h8A Framing Error,h5D[]]
-1.72,h8A Framing Error,h5D[]]
-1.7175,h8A Framing Error,h5D[]]
-1.715,h8A Framing Error,h5D[]]
-1.7125,h8A Framing Error,h5D[]]
-1.71,h8A Framing Error,h5D[]]
-1.7075,h8A Framing Error,h5D[]]
-1.705,h8A Framing Error,h5D[]]
-1.7025,h8A Framing Error,h5D[]]
-1.7,h8A Framing Error,h5D[]]
-1.6975,h8A Framing Error,h5D[]]
-1.695,h8A Framing Error,h5D[]]
-1.6925,h8A Framing Error,h5D[]]
-1.69,h8A Framing Error,h5D[]]
-1.6875,h8A Framing Error,h5D[]]
-1.685,h8A Framing Error,h5D[]]
-1.6825,h8A Framing Error,h5D[]]
-1.68,h8A Framing Error,h5D[]]
-1.6775,h8A Framing Error,h5D[]]
-1.675,h8A Framing Error,h5D[]]
-1.6725,h8A Framing Error,h5D[]]
-1.67,h8A Framing Error,h5D[]]
-1.6675,h8A Framing Error,h5D[]]
-1.665,h8A Framing Error,h5D[]]
-1.6625,h8A Framing Error,h5D[]]
-1.66,h8A Framing Error,h5D[]]
-1.6575,h8A Framing Error,h5D[]]
-1.655,h8A Framing Error,h5D[]]
-1.6525,h8A Framing Error,h5D[]]
-1.65,h8A Framing Error,h5D[]]
-1.6475,h8A Framing Error,h5D[]]
-1.645,h8A Framing Error,h5D[]]
-1.6425,h8A Framing Error,h5D[]]
-1.64,h8A Framing Error,h5D[]]
-1.6375,h8A Framing Error,h5D[]]
-1.635,h8A Framing Error,h5D[]]
-1.6325,h8A Framing Error,h5D[]]
-1.63,h8A Framing Error,h5D[]]
-1.6275,h8A Framing Error,h5D[]]
-1.625,h8A Framing Error,h5D[]]
-1.6225,h8A Framing Error,h5D[]]
-1.62,h8A Framing Error,h5D[]]
-1.6175,h8A Framing Error,h5D[]]
-1.615,h8A Framing Error,h5D[]]
-1.6125,h8A Framing Error,h5D[]]
-1.61,h8A Framing Error,h5D[]]
-1.6075,h8A Framing Error,h5D[]]
-1.605,h8A Framing Error,h5D[]]
-1.6025,h8A Framing Error,h5D[]]
-1.6,h8A Framing Error,h5D[]]
-1.5975,h8A Framing Error,h5D[]]
-1.595,h8A Framing Error,h5D[]]
-1.5925,h8A Framing Error,h5D[]]
-1.59,h8A Framing Error,h5D[]]
-1.5875,h8A Framing Error,h5D[]]
-1.585,h8A Framing Error,h5D[]]
-1.5825,h8A Framing Error,h5D[]]
-1.58,h8A Framing Error,h5D[]]
-1.5775,h8A Framing Error,h5D[]]
-1.575,h8A Framing Error,h5D[]]
-1.5725,h8A Framing Error,h5D[]]
-1.57,h8A Framing Error,h5D[]]
-1.5675,h8A Framing Error,h5D[]]
-1.565,h8A Framing Error,h5D[]]
-1.5625,h8A Framing Error,h5D[]]
-1.56,h8A Framing Error,h5D[]]
-1.5575,h8A Framing Error,h5D[]]
-1.555,h8A Framing Error,h5D[]]
-1.5525,h8A Framing Error,h5D[]]
-1.55,h8A Framing Error,h5D[]]
-1.5475,h8A Framing Error,h5D[]]
-1.545,h8A Framing Error,h5D[]]
-1.5425,h8A Framing Error,h5D[]]
-1.54,h8A Framing Error,h5D[]]
-1.5375,h8A Framing Error,h5D[]]
-1.535,h8A Framing Error,h5D[]]
-1.5325,h8A Framing Error,h5D[]]
-1.53,h8A Framing Error,h5D[]]
-1.5275,h8A Framing Error,h5D[]]
-1.525,h8A Framing Error,h5D[]]
-1.5225,h8A Framing Error,h5D[]]
-1.52,h8A Framing Error,h5D[]]
-1.5175,h8A Framing Error,h5D[]]
-1.515,h8A Framing Error,h5D[]]
-1.5125,h8A Framing Error,h5D[]]
-1.51,h8A Framing Error,h5D[]]
-1.5075,h8A Framing Error,h5D[]]
-1.505,h8A Framing Error,h5D[]]
-1.5025,h8A Framing Error,h5D[]]
-1.5,h8A Framing Error,h5D[]]
-1.4975,h8A Framing Error,h5D[]]
-1.495,h8A Framing Error,h5D[]]
-1.4925,h8A Framing Error,h5D[]]
-1.49,h8A Framing Error,h5D[]]
-1.4875,h8A Framing Error,h5D[]]
-1.485,h8A Framing Error,h5D[]]
-1.4825,h8A Framing Error,h5D[]]
-1.48,X,h5D[]]
-1.4775,X,h5D[]]
-1.475,X,h5D[]]
-1.4725,X,h5D[]]
-1.47,X,h5D[]]
-1.4675,X,h5D[]]
-1.465,X,h5D[]]
-1.4625,X,h5D[]]
-1.46,X,h5D[]]
-1.4575,X,h5D[]]
-1.455,X,h5D[]]
-1.4525,X,h5D[]]
-1.45,X,h5D[]]
-1.4475,X,h5D[]]
-1.445,X,h5D[]]
-1.4425,X,h5D[]]
-1.44,X,h5D[]]
-1.4375,X,h5D[]]
-1.435,X,h5D[]]
-1.4325,X,h5D[]]
-1.43,X,h5D[]]
-1.4275,X,h5D[]]
-1.425,X,h5D[]]
-1.4225,X,h5D[]]
-1.42,X,h5D[]]
-1.4175,X,h5D[]]
-1.415,X,h5D[]]
-1.4125,X,h5D[]]
-1.41,X,h5D[]]
-1.4075,h15[NAK] Framing Error,h5D[]]
-1.405,h15[NAK] Framing Error,h5D[]]
-1.4025,h15[NAK] Framing Error,h5D[]]
-1.4,h15[NAK] Framing Error,h5D[]]
-1.3975,h15[NAK] Framing Error,h5D[]]
-1.395,h15[NAK] Framing Error,h5D[]]
-1.3925,h15[NAK] Framing Error,h5D[]]
-1.39,h15[NAK] Framing Error,h5D[]]
-1.3875,h15[NAK] Framing Error,h5D[]]
-1.385,h15[NAK] Framing Error,X
-1.3825,h15[NAK] Framing Error,X
-1.38,h15[NAK] Framing Error,X
-1.3775,h15[NAK] Framing Error,X
-1.375,h15[NAK] Framing Error,X
-1.3725,h15[NAK] Framing Error,X
-1.37,h15[NAK] Framing Error,X
-1.3675,h15[NAK] Framing Error,X
-1.365,h15[NAK] Framing Error,X
-1.3625,h15[NAK] Framing Error,hF5[õ]
-1.36,h15[NAK] Framing Error,hF5[õ]
-1.3575,h15[NAK] Framing Error,hF5[õ]
-1.355,h15[NAK] Framing Error,hF5[õ]
-1.3525,h15[NAK] Framing Error,hF5[õ]
-1.35,h15[NAK] Framing Error,hF5[õ]
-1.3475,h15[NAK] Framing Error,hF5[õ]
-1.345,h15[NAK] Framing Error,hF5[õ]
-1.3425,h15[NAK] Framing Error,hF5[õ]
-1.34,h15[NAK] Framing Error,hF5[õ]
-1.3375,h15[NAK] Framing Error,hF5[õ]
-1.335,h15[NAK] Framing Error,hF5[õ]
-1.3325,h15[NAK] Framing Error,hF5[õ]
-1.33,h15[NAK] Framing Error,hF5[õ]
-1.3275,h15[NAK] Framing Error,hF5[õ]
-1.325,h15[NAK] Framing Error,hF5[õ]
-1.3225,h15[NAK] Framing Error,hF5[õ]
-1.32,h15[NAK] Framing Error,hF5[õ]
-1.3175,h15[NAK] Framing Error,hF5[õ]
-1.315,h15[NAK] Framing Error,hF5[õ]
-1.3125,h15[NAK] Framing Error,hF5[õ]
-1.31,h15[NAK] Framing Error,hF5[õ]
-1.3075,h15[NAK] Framing Error,hF5[õ]
-1.305,h15[NAK] Framing Error,hF5[õ]
-1.3025,h15[NAK] Framing Error,hF5[õ]
-1.3,h15[NAK] Framing Error,hF5[õ]
-1.2975,h15[NAK] Framing Error,hF5[õ]
-1.295,h15[NAK] Framing Error,hF5[õ]
-1.2925,h15[NAK] Framing Error,hF5[õ]
-1.29,h15[NAK] Framing Error,hF5[õ]
-1.2875,h15[NAK] Framing Error,hF5[õ]
-1.285,h15[NAK] Framing Error,hF5[õ]
-1.2825,h15[NAK] Framing Error,hF5[õ]
-1.28,h15[NAK] Framing Error,hF5[õ]
-1.2775,h15[NAK] Framing Error,hF5[õ]
-1.275,h15[NAK] Framing Error,hF5[õ]
-1.2725,h15[NAK] Framing Error,hF5[õ]
-1.27,h15[NAK] Framing Error,hF5[õ]
-1.2675,h15[NAK] Framing Error,hF5[õ]
-1.265,h15[NAK] Framing Error,hF5[õ]
-1.2625,h15[NAK] Framing Error,hF5[õ]
-1.26,h15[NAK] Framing Error,hF5[õ]
-1.2575,h15[NAK] Framing Error,hF5[õ]
-1.255,h15[NAK] Framing Error,hF5[õ]
-1.2525,h15[NAK] Framing Error,hF5[õ]
-1.25,h15[NAK] Framing Error,hF5[õ]
-1.2475,h15[NAK] Framing Error,hF5[õ]
-1.245,h15[NAK] Framing Error,hF5[õ]
-1.2425,h15[NAK] Framing Error,hF5[õ]
-1.24,h15[NAK] Framing Error,hF5[õ]
-1.2375,h15[NAK] Framing Error,hF5[õ]
-1.235,h15[NAK] Framing Error,hF5[õ]
-1.2325,h15[NAK] Framing Error,hF5[õ]
-1.23,h15[NAK] Framing Error,hF5[õ]
-1.2275,h15[NAK] Framing Error,hF5[õ]
-1.225,h15[NAK] Framing Error,hF5[õ]
-1.2225,h15[NAK] Framing Error,hF5[õ]
-1.22,h15[NAK] Framing Error,hF5[õ]
-1.2175,h15[NAK] Framing Error,hF5[õ]
-1.215,h15[NAK] Framing Error,hF5[õ]
-1.2125,h15[NAK] Framing Error,hF5[õ]
-1.21,h15[NAK] Framing Error,hF5[õ]
-1.2075,h15[NAK] Framing Error,hF5[õ]
-1.205,h15[NAK] Framing Error,hF5[õ]
-1.2025,h15[NAK] Framing Error,hF5[õ]
-1.2,h15[NAK] Framing Error,hF5[õ]
-1.1975,h15[NAK] Framing Error,hF5[õ]
-1.195,h15[NAK] Framing Error,hF5[õ]
-1.1925,h15[NAK] Framing Error,hF5[õ]
-1.19,h15[NAK] Framing Error,hF5[õ]
-1.1875,h15[NAK] Framing Error,hF5[õ]
-1.185,h15[NAK] Framing Error,hF5[õ]
-1.1825,h15[NAK] Framing Error,hF5[õ]
-1.18,h15[NAK] Framing Error,hF5[õ]
-1.1775,h15[NAK] Framing Error,hF5[õ]
-1.175,h15[NAK] Framing Error,hF5[õ]
-1.1725,h15[NAK] Framing Error,hF5[õ]
-1.17,h15[NAK] Framing Error,hF5[õ]
-1.1675,h15[NAK] Framing Error,hF5[õ]
-1.165,h15[NAK] Framing Error,hF5[õ]
-1.1625,h15[NAK] Framing Error,hF5[õ]
-1.16,h15[NAK] Framing Error,hF5[õ]
-1.1575,h15[NAK] Framing Error,hF5[õ]
-1.155,h15[NAK] Framing Error,hF5[õ]
-1.1525,h15[NAK] Framing Error,hF5[õ]
-1.15,h15[NAK] Framing Error,hF5[õ]
-1.1475,h15[NAK] Framing Error,hF5[õ]
-1.145,h15[NAK] Framing Error,hF5[õ]
-1.1425,h15[NAK] Framing Error,hF5[õ]
-1.14,h15[NAK] Framing Error,hF5[õ]
-1.1375,h15[NAK] Framing Error,hF5[õ]
-1.135,h15[NAK] Framing Error,hF5[õ]
-1.1325,h15[NAK] Framing Error,hF5[õ]
-1.13,h15[NAK] Framing Error,hF5[õ]
-1.1275,h15[NAK] Framing Error,hF5[õ]
-1.125,h15[NAK] Framing Error,hF5[õ]
-1.1225,h15[NAK] Framing Error,hF5[õ]
-1.12,h15[NAK] Framing Error,hF5[õ]
-1.1175,h15[NAK] Framing Error,hF5[õ]
-1.115,h15[NAK] Framing Error,hF5[õ]
-1.1125,h15[NAK] Framing Error,hF5[õ]
-1.11,h15[NAK] Framing Error,hF5[õ]
-1.1075,h15[NAK] Framing Error,hF5[õ]
-1.105,h15[NAK] Framing Error,hF5[õ]
-1.1025,h15[NAK] Framing Error,hF5[õ]
-1.1,h15[NAK] Framing Error,hF5[õ]
-1.0975,h15[NAK] Framing Error,hF5[õ]
-1.095,h15[NAK] Framing Error,hF5[õ]
-1.0925,h15[NAK] Framing Error,hF5[õ]
-1.09,h15[NAK] Framing Error,hF5[õ]
-1.0875,h15[NAK] Framing Error,hF5[õ]
-1.085,h15[NAK] Framing Error,hF5[õ]
-1.0825,h15[NAK] Framing Error,hF5[õ]
-1.08,h15[NAK] Framing Error,hF5[õ]
-1.0775,h15[NAK] Framing Error,hF5[õ]
-1.075,h15[NAK] Framing Error,hF5[õ]
-1.0725,h15[NAK] Framing Error,hF5[õ]
-1.07,h15[NAK] Framing Error,hF5[õ]
-1.0675,h15[NAK] Framing Error,hF5[õ]
-1.065,h15[NAK] Framing Error,hF5[õ]
-1.0625,h15[NAK] Framing Error,hF5[õ]
-1.06,h15[NAK] Framing Error,hF5[õ]
-1.0575,h15[NAK] Framing Error,hF5[õ]
-1.055,h15[NAK] Framing Error,hF5[õ]
-1.0525,h15[NAK] Framing Error,hF5[õ]
-1.05,h15[NAK] Framing Error,hF5[õ]
-1.0475,h15[NAK] Framing Error,hF5[õ]
-1.045,h15[NAK] Framing Error,hF5[õ]
-1.0425,h15[NAK] Framing Error,hF5[õ]
-1.04,h15[NAK] Framing Error,hF5[õ]
-1.0375,h15[NAK] Framing Error,hF5[õ]
-1.035,h15[NAK] Framing Error,hF5[õ]
-1.0325,h15[NAK] Framing Error,hF5[õ]
-1.03,h15[NAK] Framing Error,hF5[õ]
-1.0275,h15[NAK] Framing Error,hF5[õ]
-1.025,h15[NAK] Framing Error,hF5[õ]
-1.0225,h15[NAK] Framing Error,hF5[õ]
-1.02,h15[NAK] Framing Error,hF5[õ]
-1.0175,h15[NAK] Framing Error,hF5[õ]
-1.015,h15[NAK] Framing Error,hF5[õ]
-1.0125,h15[NAK] Framing Error,hF5[õ]
-1.01,h15[NAK] Framing Error,hF5[õ]
-1.0075,h15[NAK] Framing Error,hF5[õ]
-1.005,h15[NAK] Framing Error,hF5[õ]
-1.0025,h15[NAK] Framing Error,hF5[õ]
-1,h15[NAK] Framing Error,hF5[õ]
-0.9975000000000001,h15[NAK] Framing Error,hF5[õ]
-0.995,h15[NAK] Framing Error,hF5[õ]
-0.9925,h15[NAK] Framing Error,hF5[õ]
-0.99,h15[NAK] Framing Error,hF5[õ]
-0.9875,h15[NAK] Framing Error,hF5[õ]
-0.985,h15[NAK] Framing Error,hF5[õ]
-0.9825,h15[NAK] Framing Error,hF5[õ]
-0.98,h15[NAK] Framing Error,hF5[õ]
-0.9775,h15[NAK] Framing Error,hF5[õ]
-0.975,h15[NAK] Framing Error,hF5[õ]
-0.9725,h15[NAK] Framing Error,hF5[õ]
-0.97,h15[NAK] Framing Error,hF5[õ]
-0.9675,h15[NAK] Framing Error,hF5[õ]
-0.965,h15[NAK] Framing Error,hF5[õ]
-0.9625,h15[NAK] Framing Error,hF5[õ]
-0.96,h15[NAK] Framing Error,hF5[õ]
-0.9575,h15[NAK] Framing Error,hF5[õ]
-0.955,h15[NAK] Framing Error,hF5[õ]
-0.9525,h15[NAK] Framing Error,hF5[õ]
-0.95,h15[NAK] Framing Error,hF5[õ]
-0.9475,h15[NAK] Framing Error,hF5[õ]
-0.945,h15[NAK] Framing Error,hF5[õ]
-0.9425,h15[NAK] Framing Error,hF5[õ]
-0.9399999999999999,h15[NAK] Framing Error,hF5[õ]
-0.9375,h15[NAK] Framing Error,hF5[õ]
-0.9350000000000001,h15[NAK] Framing Error,hF5[õ]
-0.9325,h15[NAK] Framing Error,hF5[õ]
-0.93,X,hF5[õ]
-0.9275,X,hF5[õ]
-0.925,X,hF5[õ]
-0.9225,X,hF5[õ]
-0.92,X,hF5[õ]
-0.9175,X,hF5[õ]
-0.915,X,hF5[õ]
-0.9125,X,hF5[õ]
-0.91,X,hF5[õ]
-0.9075,X,hF5[õ]
-0.905,X,hF5[õ]
-0.9025,X,hF5[õ]
-0.9,X,hF5[õ]
-0.8975,X,hF5[õ]
-0.895,X,hF5[õ]
-0.8925,X,hF5[õ]
-0.89,X,hF5[õ]
-0.8875,X,hF5[õ]
-0.885,X,X
-0.8825,X,X
-0.88,X,X
-0.8774999999999999,X,X
-0.875,X,X
-0.8725000000000001,X,X
-0.87,X,X
-0.8675,X,X
-0.865,X,X
-0.8625,X,h01[SOH] Framing Error
-0.86,X,h01[SOH] Framing Error
-0.8575,X,h01[SOH] Framing Error
-0.855,X,h01[SOH] Framing Error
-0.8525,X,h01[SOH] Framing Error
-0.85,X,h01[SOH] Framing Error
-0.8475,X,h01[SOH] Framing Error
-0.845,X,h01[SOH] Framing Error
-0.8425,X,h01[SOH] Framing Error
-0.84,X,h01[SOH] Framing Error
-0.8375,X,h01[SOH] Framing Error
-0.835,X,h01[SOH] Framing Error
-0.8325,X,h01[SOH] Framing Error
-0.83,X,h01[SOH] Framing Error
-0.8275,X,h01[SOH] Framing Error
-0.825,X,h01[SOH] Framing Error
-0.8225,X,h01[SOH] Framing Error
-0.82,X,h01[SOH] Framing Error
-0.8175,X,h01[SOH] Framing Error
-0.8149999999999999,X,h01[SOH] Framing Error
-0.8125,X,h01[SOH] Framing Error
-0.8100000000000001,X,h01[SOH] Framing Error
-0.8075,X,h01[SOH] Framing Error
-0.805,hFF[ÿ],h01[SOH] Framing Error
-0.8025,hFF[ÿ],h01[SOH] Framing Error
-0.8,hFF[ÿ],h01[SOH] Framing Error
-0.7975,hFF[ÿ],h01[SOH] Framing Error
-0.795,hFF[ÿ],h01[SOH] Framing Error
-0.7925,hFF[ÿ],h01[SOH] Framing Error
-0.79,hFF[ÿ],h01[SOH] Framing Error
-0.7875,hFF[ÿ],h01[SOH] Framing Error
-0.785,hFF[ÿ],h01[SOH] Framing Error
-0.7825,hFF[ÿ],h01[SOH] Framing Error
-0.78,hFF[ÿ],h01[SOH] Framing Error
-0.7775,hFF[ÿ],h01[SOH] Framing Error
-0.775,hFF[ÿ],h01[SOH] Framing Error
-0.7725,hFF[ÿ],h01[SOH] Framing Error
-0.77,hFF[ÿ],h01[SOH] Framing Error
-0.7675,hFF[ÿ],h01[SOH] Framing Error
-0.765,hFF[ÿ],h01[SOH] Framing Error
-0.7625,hFF[ÿ],h01[SOH] Framing Error
-0.76,hFF[ÿ],h01[SOH] Framing Error
-0.7575,hFF[ÿ],h01[SOH] Framing Error
-0.755,hFF[ÿ],h01[SOH] Framing Error
